!Agilent Technologies,M9375A,MY55441453,A.02.50.04
!Agilent M9375A: A.02.50.04
!Date: Friday, December 09, 2016 14:39:27
!Correction: S11(Full 2 Port(1,2)) 
!S21(Full 2 Port(1,2)) 
!S12(Full 2 Port(1,2)) 
!S22(Full 2 Port(1,2)) 
!S2P File: Measurements: S11, S21, S12, S22:
# Hz S  dB   R 50
300000 -27.05521 6.2183671 -0.4109852 -0.010343409 -0.41514835 -0.03723852 -27.011681 8.9519978
8299600 -25.747231 1.5160359 -0.39400396 -0.15819198 -0.39718887 -0.2181634 -25.736887 1.3280935
16299200 -26.460091 -4.4164038 -0.42453384 -0.45250243 -0.42530611 -0.44637671 -26.46703 -3.8009329
24298800 -26.374405 -6.7364864 -0.42697862 -0.6647442 -0.42687291 -0.66175163 -26.35099 -6.4988055
32298400 -26.409262 -8.6490269 -0.42972162 -0.86833256 -0.42938629 -0.86889988 -26.42289 -8.2986956
40298000 -26.400465 -10.499331 -0.43168554 -1.0736725 -0.43136424 -1.0724101 -26.416611 -9.7585802
48297600 -26.439196 -12.123116 -0.43340886 -1.2824284 -0.43328482 -1.2828848 -26.398737 -11.54338
56297200 -26.450771 -13.827363 -0.43646717 -1.4813155 -0.43553671 -1.4783539 -26.41099 -13.278397
64296800 -26.427593 -15.776161 -0.43856028 -1.6862563 -0.4381935 -1.67932 -26.408985 -15.075681
72296400 -26.365305 -17.591667 -0.43977696 -1.8872861 -0.43988714 -1.8902068 -26.418673 -17.11673
80296000 -26.349337 -19.229752 -0.44254881 -2.0906348 -0.44257656 -2.0878835 -26.372982 -18.586414
88295600 -26.314426 -20.913166 -0.44494081 -2.285682 -0.444067 -2.2862535 -26.341017 -20.225256
96295200 -26.237659 -22.736231 -0.44644421 -2.4855092 -0.445714 -2.487046 -26.298801 -21.918671
104294800 -26.189785 -24.43539 -0.44830248 -2.6838305 -0.44783953 -2.6811638 -26.203423 -23.659296
112294400 -26.128464 -26.134628 -0.45000198 -2.8810742 -0.44906071 -2.8858802 -26.126078 -25.447445
120294000 -26.048122 -27.798948 -0.45328248 -3.0811031 -0.45176312 -3.0826907 -26.073521 -27.130524
128293600 -25.981583 -29.313505 -0.45444673 -3.2812693 -0.4536989 -3.2818117 -25.97525 -28.718231
136293200 -25.896097 -30.722717 -0.45654559 -3.474632 -0.45597097 -3.4762452 -25.898838 -30.275326
144292800 -25.808838 -32.307552 -0.45889819 -3.6735964 -0.45862803 -3.6729214 -25.823538 -31.717493
152292400 -25.737349 -33.70348 -0.46013725 -3.8690252 -0.46016258 -3.8695431 -25.741543 -33.14629
160292000 -25.625723 -35.155224 -0.46297476 -4.0643258 -0.46210223 -4.0719357 -25.668488 -34.577473
168291600 -25.541803 -36.622368 -0.46597558 -4.2592249 -0.4645468 -4.2640529 -25.590942 -35.898655
176291200 -25.446831 -38.065708 -0.46723637 -4.4550619 -0.46672222 -4.4623055 -25.506199 -37.142654
184290800 -25.351963 -39.422581 -0.46985024 -4.6519842 -0.46933722 -4.6557012 -25.42539 -38.471661
192290400 -25.260447 -40.844769 -0.47176459 -4.8477139 -0.47156093 -4.8405533 -25.331982 -39.633606
200290000 -25.157173 -42.153957 -0.47390994 -5.0411119 -0.47361341 -5.0464139 -25.248531 -40.997959
208289600 -25.05802 -43.569187 -0.47672737 -5.2361798 -0.47502181 -5.2386584 -25.134619 -42.331139
216289200 -24.971806 -44.849903 -0.47930136 -5.4326782 -0.47863755 -5.4356489 -25.043737 -43.57468
224288800 -24.855022 -46.211666 -0.48160651 -5.6242218 -0.48097858 -5.627573 -24.954227 -44.953106
232288400 -24.786343 -47.466778 -0.48413655 -5.8191729 -0.48330167 -5.8191519 -24.816168 -46.198208
240288000 -24.681185 -48.704849 -0.48718759 -6.0118647 -0.48607644 -6.0163512 -24.728464 -47.609585
248287600 -24.56735 -50.022278 -0.49010262 -6.2074757 -0.48910731 -6.210196 -24.628735 -48.810211
256287200 -24.436764 -51.203194 -0.49237311 -6.4023056 -0.49226981 -6.4028363 -24.525549 -50.005573
264286800 -24.358889 -52.460026 -0.49495086 -6.5937095 -0.49567834 -6.5953321 -24.407688 -51.171291
272286400 -24.246626 -53.618183 -0.4982675 -6.7894306 -0.49741802 -6.7897234 -24.314873 -52.321716
280286000 -24.131668 -54.732849 -0.50099051 -6.9744 -0.50109369 -6.9750957 -24.203499 -53.412689
288285600 -24.02733 -55.935474 -0.503398 -7.1724911 -0.50345981 -7.1780305 -24.11096 -54.459812
296285200 -23.928835 -57.195415 -0.50676304 -7.3651543 -0.50731367 -7.3747792 -24.003763 -55.495148
304284800 -23.82865 -58.168858 -0.50971931 -7.5511065 -0.50982636 -7.5535765 -23.894438 -56.688992
312284400 -23.727644 -59.306786 -0.51306528 -7.7453947 -0.513762 -7.7491331 -23.783506 -57.754086
320284000 -23.627348 -60.331104 -0.51678884 -7.9363275 -0.51723295 -7.9411168 -23.679945 -58.743164
328283600 -23.548134 -61.40937 -0.51852906 -8.1280432 -0.51913524 -8.1327887 -23.556356 -59.813267
336283200 -23.447109 -62.382694 -0.5222351 -8.3166294 -0.52182883 -8.3221455 -23.455385 -60.787189
344282800 -23.36602 -63.395782 -0.5258202 -8.5076275 -0.52586466 -8.5094423 -23.362452 -61.738293
352282400 -23.259531 -64.302094 -0.5291478 -8.6925774 -0.52953655 -8.6975632 -23.257078 -62.535473
360282000 -23.172417 -65.299614 -0.53340125 -8.8860884 -0.53329623 -8.8903284 -23.165594 -63.461159
368281600 -23.058788 -66.214088 -0.53624785 -9.0767288 -0.53503096 -9.0763216 -23.074892 -64.253906
376281200 -22.955242 -67.190529 -0.53923637 -9.2661848 -0.54004395 -9.2685823 -22.987539 -65.042023
384280800 -22.869112 -67.938011 -0.54245496 -9.4520245 -0.54217094 -9.4590712 -22.905577 -65.783478
392280400 -22.762884 -68.882698 -0.54569185 -9.6424046 -0.54668343 -9.6437273 -22.815508 -66.605278
400280000 -22.67454 -69.65107 -0.54937881 -9.8246679 -0.54837269 -9.8265791 -22.722219 -67.462326
408279600 -22.570028 -70.501152 -0.55332553 -10.016779 -0.55325013 -10.027374 -22.640114 -68.215416
416279200 -22.476566 -71.365532 -0.55675626 -10.205936 -0.55721909 -10.211129 -22.553202 -69.079964
424278800 -22.39497 -72.169525 -0.56039131 -10.386367 -0.55986506 -10.391809 -22.461191 -69.84153
432278400 -22.309032 -72.934807 -0.56356037 -10.578098 -0.56323153 -10.584174 -22.377506 -70.614037
440278000 -22.234127 -73.60675 -0.56830496 -10.764804 -0.56715256 -10.772206 -22.288803 -71.439201
448277600 -22.153465 -74.357063 -0.57167202 -10.945938 -0.57195383 -10.948426 -22.198446 -72.118912
456277200 -22.080067 -74.925468 -0.5759638 -11.134977 -0.57635921 -11.137465 -22.109007 -72.887688
464276800 -21.996935 -75.646095 -0.57940614 -11.311887 -0.58002585 -11.312203 -22.016846 -73.543091
472276400 -21.933733 -76.400482 -0.58208162 -11.499712 -0.58252561 -11.511634 -21.936729 -74.172134
480276000 -21.872456 -76.944321 -0.58694279 -11.68456 -0.58751076 -11.690599 -21.860802 -74.752197
488275600 -21.772633 -77.516655 -0.5908969 -11.862849 -0.59127879 -11.864942 -21.781176 -75.492783
496275200 -21.695801 -78.27047 -0.59375232 -12.045944 -0.59408015 -12.052874 -21.706459 -76.060318
504274800 -21.624157 -79.041626 -0.59695411 -12.226939 -0.59790993 -12.236291 -21.630985 -76.630653
512274400 -21.544037 -79.831734 -0.60081071 -12.409627 -0.6016106 -12.421968 -21.571028 -77.273338
520274000 -21.467522 -80.478539 -0.60549951 -12.599533 -0.60456926 -12.604408 -21.51339 -77.892189
528273600 -21.393158 -81.178986 -0.60861558 -12.783722 -0.6085937 -12.788479 -21.445354 -78.411102
536273200 -21.315479 -81.868759 -0.6136319 -12.963518 -0.61449736 -12.968193 -21.386971 -79.027786
544272800 -21.244371 -82.497734 -0.61724192 -13.146545 -0.61774153 -13.151184 -21.325249 -79.5924
552272400 -21.185225 -83.151779 -0.62089562 -13.330151 -0.62219739 -13.333481 -21.273096 -80.123184
560272000 -21.121571 -83.669235 -0.62508053 -13.514696 -0.62561852 -13.52088 -21.206621 -80.634415
568271600 -21.05706 -84.234001 -0.62864769 -13.695996 -0.62895721 -13.701511 -21.138557 -81.216827
576271200 -21.001276 -84.747475 -0.63280076 -13.87207 -0.63246691 -13.877141 -21.083187 -81.722015
584270800 -20.961699 -85.331024 -0.6368649 -14.051388 -0.63823706 -14.057002 -21.017788 -82.265923
592270400 -20.895348 -85.842293 -0.64059603 -14.230952 -0.64261717 -14.235666 -20.959427 -82.773796
600270000 -20.845791 -86.468109 -0.64495581 -14.413173 -0.64565074 -14.418197 -20.8922 -83.274361
608269600 -20.787611 -87.026245 -0.64938468 -14.593681 -0.64996988 -14.597914 -20.832251 -83.844673
616269200 -20.744095 -87.582291 -0.65354604 -14.772041 -0.65442175 -14.779364 -20.766508 -84.411079
624268800 -20.68898 -88.226074 -0.65869784 -14.955231 -0.65828383 -14.951851 -20.698753 -84.946648
632268400 -20.632008 -88.735817 -0.66188812 -15.132822 -0.66217268 -15.134438 -20.632181 -85.497231
640268000 -20.579706 -89.42778 -0.66638356 -15.30586 -0.66678923 -15.316266 -20.57975 -85.976326
648267600 -20.524105 -89.934311 -0.66989857 -15.486232 -0.67049211 -15.495309 -20.518114 -86.446548
656267200 -20.482422 -90.456276 -0.67432928 -15.66772 -0.67413062 -15.676995 -20.478867 -86.905243
664266800 -20.431095 -90.973473 -0.67869484 -15.841372 -0.67861289 -15.850769 -20.43215 -87.372475
672266400 -20.385265 -91.444939 -0.68313593 -16.02133 -0.68388277 -16.02211 -20.391617 -87.81134
680266000 -20.345358 -91.901283 -0.68718302 -16.19243 -0.68799621 -16.206228 -20.34874 -88.142334
688265600 -20.305298 -92.362289 -0.69117314 -16.367205 -0.69167137 -16.369244 -20.307491 -88.560516
696265200 -20.26103 -92.828308 -0.69543779 -16.548866 -0.69599825 -16.555336 -20.25939 -88.951767
704264800 -20.22571 -93.367561 -0.69978386 -16.723738 -0.69967127 -16.730375 -20.220524 -89.371948
712264400 -20.185488 -93.835411 -0.7039026 -16.900373 -0.70489085 -16.906004 -20.166555 -89.785027
720264000 -20.137114 -94.270012 -0.70816094 -17.076813 -0.70858288 -17.085543 -20.12249 -90.238754
728263600 -20.10322 -94.744675 -0.71270192 -17.255211 -0.71411109 -17.260017 -20.079414 -90.683701
736263200 -20.061571 -95.267235 -0.71635967 -17.428949 -0.7181679 -17.430593 -20.013916 -91.138962
744262800 -20.026684 -95.708961 -0.72015971 -17.601383 -0.7210902 -17.603731 -19.964931 -91.537971
752262400 -19.989857 -96.25341 -0.72475755 -17.774204 -0.72669214 -17.782751 -19.924093 -91.90126
760262000 -19.957663 -96.632256 -0.72939885 -17.951725 -0.73040587 -17.958122 -19.890474 -92.358406
768261600 -19.933689 -97.082687 -0.73321629 -18.127537 -0.7336548 -18.13117 -19.84911 -92.706795
776261200 -19.902409 -97.481194 -0.73741317 -18.301701 -0.73794407 -18.31443 -19.809769 -93.062912
784260800 -19.870859 -97.956932 -0.74189478 -18.47278 -0.74290192 -18.473989 -19.771847 -93.406364
792260400 -19.844648 -98.348015 -0.74590993 -18.646841 -0.74653131 -18.65868 -19.757391 -93.797539
800260000 -19.815998 -98.767967 -0.75042272 -18.819262 -0.75137508 -18.825033 -19.732763 -94.156647
808259600 -19.791819 -99.146965 -0.75361425 -18.99444 -0.7555117 -18.9965 -19.704697 -94.534988
816259200 -19.749599 -99.654503 -0.75946486 -19.169668 -0.76010138 -19.178032 -19.684978 -94.86483
824258800 -19.728859 -100.00205 -0.76304376 -19.338434 -0.76432872 -19.345013 -19.65745 -95.185326
832258400 -19.693451 -100.46167 -0.7670275 -19.512486 -0.76789933 -19.518597 -19.63574 -95.523537
840258000 -19.676758 -100.8412 -0.77199799 -19.689693 -0.77376145 -19.682356 -19.617947 -95.846237
848257600 -19.648624 -101.24033 -0.77607417 -19.856981 -0.77700943 -19.858721 -19.597574 -96.156754
856257200 -19.630163 -101.59573 -0.78028476 -20.023649 -0.78093791 -20.028839 -19.569582 -96.523254
864256800 -19.616293 -101.95612 -0.78415841 -20.196411 -0.78597927 -20.202824 -19.543587 -96.863472
872256400 -19.59906 -102.31814 -0.7890085 -20.367046 -0.78986341 -20.372114 -19.513298 -97.133568
880256000 -19.591198 -102.65652 -0.79331982 -20.540184 -0.79473597 -20.552727 -19.478949 -97.45784
888255600 -19.570517 -103.09363 -0.79740751 -20.705564 -0.79929495 -20.716747 -19.45373 -97.71666
896255200 -19.559801 -103.47841 -0.80125165 -20.879778 -0.80326927 -20.885632 -19.437187 -98.05349
904254800 -19.551592 -103.84518 -0.80522144 -21.052332 -0.80726445 -21.05891 -19.413561 -98.347389
912254400 -19.534035 -104.16425 -0.81023473 -21.221218 -0.81159222 -21.222095 -19.396255 -98.684074
920254000 -19.515816 -104.55238 -0.81439215 -21.391796 -0.81563371 -21.390726 -19.384136 -98.923271
928253600 -19.505461 -104.9756 -0.81875175 -21.561756 -0.82037002 -21.566011 -19.364204 -99.242355
936253200 -19.495558 -105.37986 -0.82328153 -21.73074 -0.82592446 -21.738907 -19.357393 -99.473671
944252800 -19.490179 -105.682 -0.82670623 -21.893066 -0.82920545 -21.897652 -19.350983 -99.841866
952252400 -19.481228 -106.11295 -0.83191603 -22.068506 -0.83428192 -22.077774 -19.335909 -100.09606
960252000 -19.484007 -106.40832 -0.83562332 -22.235178 -0.83709592 -22.238594 -19.324715 -100.3985
968251600 -19.476437 -106.77153 -0.839495 -22.402815 -0.84144121 -22.409122 -19.313623 -100.66726
976251200 -19.484106 -107.08043 -0.84387606 -22.574087 -0.84586364 -22.583546 -19.29508 -100.91913
984250800 -19.490295 -107.46837 -0.84825009 -22.743219 -0.84955782 -22.746387 -19.283224 -101.21963
992250400 -19.503515 -107.77711 -0.85169446 -22.91148 -0.85406941 -22.919472 -19.266031 -101.48758
1000250000 -19.504827 -108.06567 -0.85578245 -23.080463 -0.85766387 -23.076624 -19.25853 -101.81441
1008249600 -19.514723 -108.43034 -0.86000353 -23.249569 -0.86135268 -23.242674 -19.24604 -102.09673
1016249200 -19.518282 -108.78281 -0.86449224 -23.410589 -0.86502451 -23.414547 -19.248043 -102.4055
1024248800 -19.520493 -109.10966 -0.86908782 -23.588284 -0.87002474 -23.591354 -19.244099 -102.66423
1032248400 -19.533426 -109.50708 -0.87421298 -23.753017 -0.87510794 -23.754578 -19.244959 -102.91552
1040248000 -19.529964 -109.90923 -0.87857133 -23.91893 -0.87943816 -23.923691 -19.243483 -103.17356
1048247600 -19.5376 -110.17562 -0.88084531 -24.084082 -0.88329554 -24.087181 -19.249081 -103.44228
1056247200 -19.55188 -110.47966 -0.886204 -24.254168 -0.8886894 -24.256498 -19.252741 -103.72107
1064246800 -19.560022 -110.7655 -0.89091438 -24.41914 -0.89257258 -24.426592 -19.263348 -103.99259
1072246400 -19.571865 -111.13457 -0.89428538 -24.58415 -0.89537942 -24.587906 -19.269463 -104.25021
1080246000 -19.588989 -111.42731 -0.89907974 -24.753748 -0.90121233 -24.760572 -19.27091 -104.44783
1088245600 -19.612181 -111.74349 -0.90275586 -24.921228 -0.90529442 -24.918922 -19.279152 -104.70198
1096245200 -19.635027 -112.02795 -0.90743136 -25.085993 -0.9093945 -25.088881 -19.281063 -104.94247
1104244800 -19.650284 -112.27853 -0.91164535 -25.247114 -0.91399264 -25.256012 -19.293175 -105.16262
1112244400 -19.670671 -112.52587 -0.91662079 -25.417896 -0.91785163 -25.424095 -19.301247 -105.46982
1120244000 -19.688288 -112.87396 -0.9200415 -25.586645 -0.92301291 -25.586464 -19.303432 -105.67705
1128243600 -19.720058 -113.11519 -0.92493653 -25.748863 -0.92705494 -25.756498 -19.317768 -105.90765
1136243200 -19.736561 -113.39957 -0.92884618 -25.916851 -0.93119818 -25.914345 -19.325802 -106.13969
1144242800 -19.770348 -113.6773 -0.93303901 -26.07596 -0.93523496 -26.083069 -19.345957 -106.41304
1152242400 -19.809242 -113.89639 -0.93752414 -26.239372 -0.93925631 -26.240562 -19.358156 -106.59728
1160242000 -19.850628 -114.21898 -0.94170803 -26.404633 -0.9429189 -26.402666 -19.380989 -106.85186
1168241600 -19.879711 -114.48114 -0.9463405 -26.563911 -0.9485113 -26.565531 -19.409782 -107.14108
1176241200 -19.911476 -114.81219 -0.95007724 -26.726339 -0.95157182 -26.726118 -19.439301 -107.31864
1184240800 -19.95669 -115.11341 -0.95490766 -26.887918 -0.95621473 -26.895124 -19.468576 -107.57312
1192240400 -20.000631 -115.37535 -0.95876366 -27.052965 -0.9606427 -27.050146 -19.490658 -107.8098
1200240000 -20.038973 -115.6202 -0.96184081 -27.208059 -0.96371496 -27.211166 -19.533825 -108.03802
1208239600 -20.080023 -115.79613 -0.96579528 -27.371988 -0.96727955 -27.3736 -19.562609 -108.30099
1216239200 -20.118736 -116.00788 -0.97028428 -27.530762 -0.97144979 -27.537237 -19.606794 -108.51424
1224238800 -20.167866 -116.19559 -0.97402406 -27.692698 -0.97410733 -27.700962 -19.640778 -108.72889
1232238400 -20.217318 -116.43414 -0.97723585 -27.854158 -0.97825611 -27.867369 -19.681829 -108.96519
1240238000 -20.264206 -116.58656 -0.97974467 -28.011095 -0.9815644 -28.021612 -19.720825 -109.09601
1248237600 -20.310875 -116.77798 -0.98377001 -28.177914 -0.98633879 -28.183172 -19.760645 -109.26565
1256237200 -20.344511 -116.92284 -0.98648185 -28.338518 -0.98718667 -28.330202 -19.804605 -109.44234
1264236800 -20.388277 -117.14603 -0.99037111 -28.499313 -0.99234855 -28.497398 -19.85574 -109.62563
1272236400 -20.449915 -117.41679 -0.9924323 -28.663914 -0.99455065 -28.658508 -19.894808 -109.80903
1280236000 -20.487347 -117.64713 -0.99674982 -28.825666 -0.99864185 -28.824017 -19.950085 -109.9316
1288235600 -20.531208 -117.8396 -1.0002168 -28.98735 -1.0017709 -28.985186 -19.982784 -110.10908
1296235200 -20.57728 -118.04933 -1.0023334 -29.156723 -1.0038229 -29.153925 -20.042406 -110.27631
1304234800 -20.626791 -118.23296 -1.0045413 -29.324055 -1.0068111 -29.319485 -20.092319 -110.49852
1312234400 -20.672224 -118.43103 -1.0084546 -29.490572 -1.0108031 -29.480036 -20.152599 -110.62469
1320234000 -20.726681 -118.63211 -1.0120357 -29.659678 -1.0141628 -29.650524 -20.206215 -110.85002
1328233600 -20.780962 -118.82346 -1.0155175 -29.827173 -1.0174783 -29.818182 -20.267149 -110.98251
1336233200 -20.838058 -119.00116 -1.0187346 -29.989622 -1.0196013 -29.981888 -20.331272 -111.13045
1344232800 -20.894903 -119.25984 -1.0214266 -30.162529 -1.0232668 -30.156588 -20.404989 -111.31654
1352232400 -20.969193 -119.40954 -1.0250967 -30.336586 -1.0279928 -30.32732 -20.457903 -111.39308
1360232000 -21.019945 -119.59895 -1.0288361 -30.502174 -1.030376 -30.496031 -20.53286 -111.56449
1368231600 -21.083704 -119.84727 -1.0317088 -30.670176 -1.0335318 -30.658545 -20.616421 -111.63557
1376231200 -21.151154 -120.10088 -1.0363243 -30.837444 -1.0377676 -30.830944 -20.681437 -111.79929
1384230800 -21.214273 -120.26223 -1.0389411 -31.00761 -1.0415918 -30.997475 -20.759596 -111.92214
1392230400 -21.287556 -120.50482 -1.042554 -31.17697 -1.0449337 -31.170843 -20.831564 -112.07125
1400230000 -21.355415 -120.7214 -1.0472112 -31.351147 -1.049704 -31.33754 -20.925064 -112.22763
1408229600 -21.435654 -120.90333 -1.051123 -31.523895 -1.0525557 -31.512192 -20.99894 -112.3231
1416229200 -21.511017 -121.15969 -1.0548326 -31.69663 -1.0562717 -31.689251 -21.085358 -112.44241
1424228800 -21.576538 -121.341 -1.0591491 -31.872519 -1.0608962 -31.863688 -21.182533 -112.54375
1432228400 -21.661526 -121.48965 -1.0644188 -32.044258 -1.065595 -32.027172 -21.272745 -112.61058
1440228000 -21.741087 -121.72887 -1.0674717 -32.217529 -1.069093 -32.214401 -21.384485 -112.75483
1448227600 -21.81735 -121.93199 -1.072661 -32.391464 -1.0747474 -32.378551 -21.490015 -112.81873
1456227200 -21.895975 -122.12078 -1.0772362 -32.562424 -1.0801759 -32.553806 -21.604048 -112.90031
1464226800 -21.977713 -122.31876 -1.0834397 -32.734852 -1.0855145 -32.726601 -21.719114 -112.89548
1472226400 -22.048616 -122.47967 -1.088923 -32.907463 -1.0913357 -32.901619 -21.849789 -112.88806
1480226000 -22.134073 -122.60814 -1.0952605 -33.081165 -1.0973157 -33.073772 -21.977133 -112.88843
1488225600 -22.208492 -122.80359 -1.1013938 -33.252365 -1.1038283 -33.247826 -22.12166 -112.77885
1496225200 -22.288727 -123.01569 -1.109022 -33.421879 -1.1111006 -33.419365 -22.267241 -112.68343
1504224800 -22.36191 -123.17783 -1.116855 -33.587658 -1.1190215 -33.575424 -22.428215 -112.48862
1512224400 -22.428665 -123.40074 -1.1245669 -33.74725 -1.1266309 -33.741501 -22.601456 -112.10464
1520224000 -22.506096 -123.71223 -1.1329058 -33.905918 -1.135641 -33.900879 -22.762741 -111.74452
1528223600 -22.581379 -123.95364 -1.1416188 -34.055687 -1.1439608 -34.04406 -22.92997 -111.16296
1536223200 -22.64588 -124.35123 -1.1510109 -34.19355 -1.1528838 -34.182384 -23.084774 -110.3318
1544222800 -22.713675 -124.81156 -1.1583099 -34.322075 -1.161314 -34.313076 -23.220451 -109.5209
1552222400 -22.779823 -125.41736 -1.1654493 -34.448116 -1.1684599 -34.434261 -23.335655 -108.52824
1560222000 -22.888418 -126.04951 -1.1709422 -34.564423 -1.1722696 -34.560089 -23.390453 -107.48547
